
T0EBC 000:034 SEGGER J-Link V6.10i Log File (0000ms, 0015ms total)
T0EBC 000:034 DLL Compiled: Oct 25 2016 19:31:51 (0000ms, 0015ms total)
T0EBC 000:034 Logging started @ 2017-09-22 16:52 (0000ms, 0015ms total)
T0EBC 000:034 JLINK_SetWarnOutHandler(...) (0000ms, 0015ms total)
T0EBC 000:034 JLINK_OpenEx(...)
Firmware: J-Link ARM V8 compiled Jan 31 2018 18:34:52
Hardware: V8.00
Feature(s): RDI,FlashDL,FlashBP,JFlash,GDBFullWEBSRV Webserver running on local port 19080 (0009ms, 0024ms total)
T0EBC 000:034   returns O.K. (0009ms, 0024ms total)
T0EBC 000:043 JLINK_SetErrorOutHandler(...) (0000ms, 0024ms total)
T0EBC 000:043 JLINK_ExecCommand("ProjectFile = "G:\myDemo\Project_Template\Template_STM32F103C8_UCOSIII\MDK-ARM\JLinkSettings.ini"", ...).   returns 0x00 (0107ms, 0131ms total)
T0EBC 000:153 JLINK_ExecCommand("Device = STM32F103C8", ...). Device "STM32F103C8" selected.  returns 0x00 (0002ms, 0133ms total)
T0EBC 000:155 JLINK_ExecCommand("DisableConnectionTimeout", ...).   returns 0x01 (0000ms, 0133ms total)
T0EBC 000:155 JLINK_GetHardwareVersion()  returns 0x13880 (0000ms, 0133ms total)
T0EBC 000:155 JLINK_GetDLLVersion()  returns 61009 (0000ms, 0133ms total)
T0EBC 000:155 JLINK_GetFirmwareString(...) (0000ms, 0133ms total)
T0EBC 000:157 JLINK_GetDLLVersion()  returns 61009 (0000ms, 0133ms total)
T0EBC 000:157 JLINK_GetCompileDateTime() (0000ms, 0133ms total)
T0EBC 000:157 JLINK_GetFirmwareString(...) (0000ms, 0133ms total)
T0EBC 000:158 JLINK_GetHardwareVersion()  returns 0x13880 (0000ms, 0133ms total)
T0EBC 000:160 JLINK_TIF_Select(JLINKARM_TIF_SWD)  returns 0x00 (0001ms, 0134ms total)
T0EBC 000:161 JLINK_SetSpeed(10000) (0000ms, 0134ms total)
T0EBC 000:161 JLINK_GetId() >0x108 TIF>Found SWD-DP with ID 0x1BA01477 >0x0D TIF> >0x28 TIF> >0x0D TIF> >0x28 TIF> >0x0D TIF> >0x28 TIF> >0x0D TIF> >0x28 TIF> >0x0D TIF> >0x21 TIF> >0x0D TIF> >0x28 TIF> >0x0D TIF> >0x28 TIF> >0x0D TIF> >0x28 TIF> >0x0D TIF> >0x21 TIF> >0x0D TIF> >0x21 TIF> >0x0D TIF> >0x28 TIF> >0x0D TIF> >0x21 TIF> >0x0D TIF> >0x21 TIF> >0x0D TIF> >0x28 TIF> >0x0D TIF> >0x21 TIF> >0x0D TIF> >0x21 TIF> >0x0D TIF> >0x28 TIF> >0x0D TIF> >0x21 TIF> >0x0D TIF> >0x21 TIF> >0x0D TIF>
 >0x28 TIF> >0x0D TIF> >0x21 TIF> >0x0D TIF> >0x21 TIF> >0x0D TIF> >0x28 TIF> >0x0D TIF> >0x21 TIF> >0x0D TIF> >0x21 TIF> >0x0D TIF> >0x28 TIF> >0x0D TIF> >0x21 TIF> >0x0D TIF> >0x21 TIF> >0x108 TIF>Found SWD-DP with ID 0x1BA01477 >0x0D TIF> >0x28 TIF> >0x0D TIF> >0x28 TIF> >0x0D TIF> >0x28 TIF> >0x0D TIF> >0x28 TIF> >0x0D TIF> >0x21 TIF> >0x0D TIF> >0x28 TIF> >0x0D TIF> >0x28 TIF> >0x0D TIF> >0x21 TIF> >0x0D TIF> >0x21 TIF> >0x0D TIF> >0x21 TIF>AP-IDR: 0x14770011, Type: AHB-AP >0x0D TIF> >0x28 TIF>
 >0x0D TIF> >0x28 TIF> >0x0D TIF> >0x28 TIF> >0x0D TIF> >0x21 TIF> >0x0D TIF> >0x21 TIF> >0x0D TIF> >0x28 TIF> >0x0D TIF> >0x21 TIF> >0x0D TIF> >0x21 TIF>Found Cortex-M3 r1p1, Little endian. >0x0D TIF> >0x28 TIF> -- CPU_ReadMem(4 bytes @ 0xE000EDF0) -- CPU_WriteMem(4 bytes @ 0xE000EDF0) -- CPU_ReadMem(4 bytes @ 0xE0002000)FPUnit: 6 code (BP) slots and 2 literal slots -- CPU_ReadMem(4 bytes @ 0xE000EDFC) -- CPU_WriteMem(4 bytes @ 0xE000EDFC) -- CPU_ReadMem(4 bytes @ 0xE0001000)
 -- CPU_WriteMem(4 bytes @ 0xE0001000) -- CPU_ReadMem(4 bytes @ 0xE000ED88) -- CPU_WriteMem(4 bytes @ 0xE000ED88) -- CPU_ReadMem(4 bytes @ 0xE000ED88) -- CPU_WriteMem(4 bytes @ 0xE000ED88)CoreSight components:ROMTbl 0 @ E00FF000 -- CPU_ReadMem(16 bytes @ 0xE00FF000) -- CPU_ReadMem(16 bytes @ 0xE000EFF0) -- CPU_ReadMem(16 bytes @ 0xE000EFE0)ROMTbl 0 [0]: FFF0F000, CID: B105E00D, PID: 001BB000 SCS -- CPU_ReadMem(16 bytes @ 0xE0001FF0) -- CPU_ReadMem(16 bytes @ 0xE0001FE0)
ROMTbl 0 [1]: FFF02000, CID: B105E00D, PID: 001BB002 DWT -- CPU_ReadMem(16 bytes @ 0xE0002FF0) -- CPU_ReadMem(16 bytes @ 0xE0002FE0)ROMTbl 0 [2]: FFF03000, CID: B105E00D, PID: 000BB003 FPB -- CPU_ReadMem(16 bytes @ 0xE0000FF0) -- CPU_ReadMem(16 bytes @ 0xE0000FE0)ROMTbl 0 [3]: FFF01000, CID: B105E00D, PID: 001BB001 ITM -- CPU_ReadMem(16 bytes @ 0xE00FF010) -- CPU_ReadMem(16 bytes @ 0xE0040FF0) -- CPU_ReadMem(16 bytes @ 0xE0040FE0)ROMTbl 0 [4]: FFF41000, CID: B105900D, PID: 001BB923 TPIU-Lite
 -- CPU_ReadMem(16 bytes @ 0xE0041FF0) -- CPU_ReadMem(16 bytes @ 0xE0041FE0)ROMTbl 0 [5]: FFF42000, CID: B105900D, PID: 101BB924 ETM-M3 >0x0D TIF> >0x21 TIF>  returns 0x1BA01477 (0060ms, 0194ms total)
T0EBC 000:221 JLINK_GetDLLVersion()  returns 61009 (0000ms, 0194ms total)
T0EBC 000:221 JLINK_CORE_GetFound()  returns 0x30000FF (0000ms, 0194ms total)
T0EBC 000:221 JLINK_GetDebugInfo(0x100) -- Value=0xE00FF000  returns 0x00 (0000ms, 0194ms total)
T0EBC 000:222 JLINK_GetDebugInfo(0x100) -- Value=0xE00FF000  returns 0x00 (0000ms, 0194ms total)
T0EBC 000:222 JLINK_GetDebugInfo(0x101) -- Value=0xE0041000  returns 0x00 (0000ms, 0194ms total)
T0EBC 000:222 JLINK_GetDebugInfo(0x102) -- Value=0x00000000  returns 0x00 (0000ms, 0194ms total)
T0EBC 000:222 JLINK_GetDebugInfo(0x103) -- Value=0xE0040000  returns 0x00 (0000ms, 0194ms total)
T0EBC 000:222 JLINK_GetDebugInfo(0x104) -- Value=0xE0000000  returns 0x00 (0000ms, 0194ms total)
T0EBC 000:222 JLINK_GetDebugInfo(0x105) -- Value=0xE0001000  returns 0x00 (0000ms, 0194ms total)
T0EBC 000:222 JLINK_GetDebugInfo(0x106) -- Value=0xE0002000  returns 0x00 (0000ms, 0194ms total)
T0EBC 000:222 JLINK_GetDebugInfo(0x107) -- Value=0xE000E000  returns 0x00 (0000ms, 0194ms total)
T0EBC 000:222 JLINK_GetDebugInfo(0x10C) -- Value=0xE000EDF0  returns 0x00 (0000ms, 0194ms total)
T0EBC 000:222 JLINK_ReadMemU32(0xE000ED00, 0x0001 Items, ...) -- CPU is running -- CPU_ReadMem(4 bytes @ 0xE000ED00) - Data: 31 C2 1F 41  returns 0x01 (0000ms, 0194ms total)
T0EBC 000:222 JLINK_SetResetType(JLINKARM_RESET_TYPE_NORMAL)  returns JLINKARM_RESET_TYPE_NORMAL (0000ms, 0194ms total)
T0EBC 000:222 JLINK_Reset() -- CPU_WriteMem(4 bytes @ 0xE0002000) -- CPU_ReadMem(4 bytes @ 0xE000EDFC) -- CPU_WriteMem(4 bytes @ 0xE000EDFC) -- CPU_ReadMem(4 bytes @ 0xE0001000) (0013ms, 0207ms total)
T0EBC 000:235 JLINK_Halt()  returns 0x00 (0000ms, 0207ms total)
T0EBC 000:235 JLINK_IsHalted()  returns TRUE (0000ms, 0207ms total)
T0EBC 000:235 JLINK_ReadMemU32(0xE000EDF0, 0x0001 Items, ...) -- CPU_ReadMem(4 bytes @ 0xE000EDF0) - Data: 03 00 03 00  returns 0x01 (0001ms, 0208ms total)
T0EBC 000:236 JLINK_WriteU32(0xE000EDF0, 0xA05F0003) -- CPU_WriteMem(4 bytes @ 0xE000EDF0)  returns 0x00 (0000ms, 0208ms total)
T0EBC 000:236 JLINK_WriteU32(0xE000EDFC, 0x01000000) -- CPU_WriteMem(4 bytes @ 0xE000EDFC)  returns 0x00 (0001ms, 0209ms total)
T0EBC 000:241 JLINK_GetHWStatus(...)  returns 0x00 (0001ms, 0210ms total)
T0EBC 000:244 JLINK_GetNumBPUnits(Type = 0xFFFFFF00)  returns 0x06 (0000ms, 0210ms total)
T0EBC 000:244 JLINK_GetNumBPUnits(Type = 0xF0)  returns 0x2000 (0000ms, 0210ms total)
T0EBC 000:244 JLINK_GetNumWPUnits()  returns 0x04 (0000ms, 0210ms total)
T0EBC 000:245 JLINK_GetSpeed()  returns 0xFA0 (0000ms, 0210ms total)
T0EBC 000:246 JLINK_ReadMemU32(0xE000E004, 0x0001 Items, ...) -- CPU_ReadMem(4 bytes @ 0xE000E004) - Data: 01 00 00 00  returns 0x01 (0001ms, 0211ms total)
T0EBC 000:247 JLINK_ReadMemU32(0xE000E004, 0x0001 Items, ...) -- CPU_ReadMem(4 bytes @ 0xE000E004) - Data: 01 00 00 00  returns 0x01 (0000ms, 0211ms total)
T0EBC 000:248 JLINK_WriteMem(0xE0001000, 0x001C Bytes, ...) - Data: 01 00 00 00 00 00 00 00 00 00 00 00 00 00 00 00 ... -- CPU_WriteMem(28 bytes @ 0xE0001000)  returns 0x1C (0001ms, 0212ms total)
T0EBC 000:249 JLINK_ReadMem (0xE0001000, 0x001C Bytes, ...) -- CPU_ReadMem(28 bytes @ 0xE0001000) - Data: 01 00 00 40 00 00 00 00 00 00 00 00 00 00 00 00 ...  returns 0x00 (0000ms, 0212ms total)
T0EBC 000:249 JLINK_Halt()  returns 0x00 (0000ms, 0212ms total)
T0EBC 000:249 JLINK_IsHalted()  returns TRUE (0000ms, 0212ms total)
T0EBC 000:252 JLINK_WriteMem(0x20000000, 0x0164 Bytes, ...) - Data: 00 BE 0A E0 0D 78 2D 06 68 40 08 24 40 00 00 D3 ... -- CPU_WriteMem(356 bytes @ 0x20000000)  returns 0x164 (0004ms, 0216ms total)
T0EBC 000:256 JLINK_WriteReg(R0, 0x08000000)  returns 0x00 (0000ms, 0216ms total)
T0EBC 000:256 JLINK_WriteReg(R1, 0x044AA200)  returns 0x00 (0000ms, 0216ms total)
T0EBC 000:256 JLINK_WriteReg(R2, 0x00000001)  returns 0x00 (0000ms, 0216ms total)
T0EBC 000:256 JLINK_WriteReg(R3, 0x00000000)  returns 0x00 (0000ms, 0216ms total)
T0EBC 000:256 JLINK_WriteReg(R4, 0x00000000)  returns 0x00 (0000ms, 0216ms total)
T0EBC 000:256 JLINK_WriteReg(R5, 0x00000000)  returns 0x00 (0000ms, 0216ms total)
T0EBC 000:256 JLINK_WriteReg(R6, 0x00000000)  returns 0x00 (0000ms, 0216ms total)
T0EBC 000:256 JLINK_WriteReg(R7, 0x00000000)  returns 0x00 (0000ms, 0216ms total)
T0EBC 000:256 JLINK_WriteReg(R8, 0x00000000)  returns 0x00 (0000ms, 0216ms total)
T0EBC 000:256 JLINK_WriteReg(R9, 0x20000160)  returns 0x00 (0000ms, 0216ms total)
T0EBC 000:256 JLINK_WriteReg(R10, 0x00000000)  returns 0x00 (0000ms, 0216ms total)
T0EBC 000:256 JLINK_WriteReg(R11, 0x00000000)  returns 0x00 (0000ms, 0216ms total)
T0EBC 000:256 JLINK_WriteReg(R12, 0x00000000)  returns 0x00 (0000ms, 0216ms total)
T0EBC 000:256 JLINK_WriteReg(R13 (SP), 0x20001000)  returns 0x00 (0000ms, 0216ms total)
T0EBC 000:256 JLINK_WriteReg(R14, 0x20000001)  returns 0x00 (0000ms, 0216ms total)
T0EBC 000:256 JLINK_WriteReg(R15 (PC), 0x20000038)  returns 0x00 (0000ms, 0216ms total)
T0EBC 000:256 JLINK_WriteReg(XPSR, 0x01000000)  returns 0x00 (0000ms, 0216ms total)
T0EBC 000:256 JLINK_WriteReg(MSP, 0x20001000)  returns 0x00 (0000ms, 0216ms total)
T0EBC 000:256 JLINK_WriteReg(PSP, 0x20001000)  returns 0x00 (0000ms, 0216ms total)
T0EBC 000:256 JLINK_WriteReg(CFBP, 0x00000000)  returns 0x00 (0000ms, 0216ms total)
T0EBC 000:256 JLINK_SetBPEx(Addr = 0x20000000, Type = 0xFFFFFFF2) -- CPU_ReadMem(2 bytes @ 0x20000000)  returns 0x00000001 (0000ms, 0216ms total)
T0EBC 000:256 JLINK_Go() -- CPU_WriteMem(2 bytes @ 0x20000000) -- CPU_WriteMem(4 bytes @ 0xE0002008) -- CPU_WriteMem(4 bytes @ 0xE000200C) -- CPU_WriteMem(4 bytes @ 0xE0002010) -- CPU_WriteMem(4 bytes @ 0xE0002014) -- CPU_WriteMem(4 bytes @ 0xE0002018) -- CPU_WriteMem(4 bytes @ 0xE000201C) -- CPU_ReadMem(4 bytes @ 0xE0001000) -- CPU_WriteMem(4 bytes @ 0xE0001004) (0007ms, 0223ms total)
T0EBC 000:263 JLINK_IsHalted() -- CPU_ReadMem(2 bytes @ 0x20000000)  returns TRUE (0004ms, 0227ms total)
T0EBC 000:267 JLINK_ReadReg(R15 (PC))  returns 0x20000000 (0000ms, 0223ms total)
T0EBC 000:267 JLINK_ClrBPEx(BPHandle = 0x00000001)  returns 0x00 (0000ms, 0223ms total)
T0EBC 000:267 JLINK_ReadReg(R0)  returns 0x00000000 (0000ms, 0223ms total)
T0EBC 000:267 JLINK_WriteReg(R0, 0x08000000)  returns 0x00 (0000ms, 0223ms total)
T0EBC 000:267 JLINK_WriteReg(R1, 0x044AA200)  returns 0x00 (0000ms, 0223ms total)
T0EBC 000:267 JLINK_WriteReg(R2, 0x00000001)  returns 0x00 (0000ms, 0223ms total)
T0EBC 000:267 JLINK_WriteReg(R3, 0x00000000)  returns 0x00 (0000ms, 0223ms total)
T0EBC 000:267 JLINK_WriteReg(R4, 0x00000000)  returns 0x00 (0000ms, 0223ms total)
T0EBC 000:267 JLINK_WriteReg(R5, 0x00000000)  returns 0x00 (0000ms, 0223ms total)
T0EBC 000:267 JLINK_WriteReg(R6, 0x00000000)  returns 0x00 (0000ms, 0223ms total)
T0EBC 000:267 JLINK_WriteReg(R7, 0x00000000)  returns 0x00 (0000ms, 0223ms total)
T0EBC 000:267 JLINK_WriteReg(R8, 0x00000000)  returns 0x00 (0000ms, 0223ms total)
T0EBC 000:267 JLINK_WriteReg(R9, 0x20000160)  returns 0x00 (0000ms, 0223ms total)
T0EBC 000:267 JLINK_WriteReg(R10, 0x00000000)  returns 0x00 (0000ms, 0223ms total)
T0EBC 000:267 JLINK_WriteReg(R11, 0x00000000)  returns 0x00 (0000ms, 0223ms total)
T0EBC 000:267 JLINK_WriteReg(R12, 0x00000000)  returns 0x00 (0000ms, 0223ms total)
T0EBC 000:267 JLINK_WriteReg(R13 (SP), 0x20001000)  returns 0x00 (0000ms, 0223ms total)
T0EBC 000:267 JLINK_WriteReg(R14, 0x20000001)  returns 0x00 (0000ms, 0223ms total)
T0EBC 000:267 JLINK_WriteReg(R15 (PC), 0x2000007C)  returns 0x00 (0000ms, 0223ms total)
T0EBC 000:267 JLINK_WriteReg(XPSR, 0x01000000)  returns 0x00 (0000ms, 0223ms total)
T0EBC 000:267 JLINK_WriteReg(MSP, 0x20001000)  returns 0x00 (0000ms, 0223ms total)
T0EBC 000:267 JLINK_WriteReg(PSP, 0x20001000)  returns 0x00 (0000ms, 0223ms total)
T0EBC 000:267 JLINK_WriteReg(CFBP, 0x00000000)  returns 0x00 (0000ms, 0223ms total)
T0EBC 000:267 JLINK_SetBPEx(Addr = 0x20000000, Type = 0xFFFFFFF2)  returns 0x00000002 (0000ms, 0223ms total)
T0EBC 000:267 JLINK_Go() -- CPU_ReadMem(4 bytes @ 0xE0001000) (0002ms, 0225ms total)
T0EBC 000:269 JLINK_IsHalted()  returns FALSE (0000ms, 0225ms total)
T0EBC 000:356 JLINK_IsHalted() -- CPU_ReadMem(2 bytes @ 0x20000000)  returns TRUE (0004ms, 0229ms total)
T0EBC 000:360 JLINK_ReadReg(R15 (PC))  returns 0x20000000 (0000ms, 0225ms total)
T0EBC 000:360 JLINK_ClrBPEx(BPHandle = 0x00000002)  returns 0x00 (0000ms, 0225ms total)
T0EBC 000:360 JLINK_ReadReg(R0)  returns 0x00000000 (0000ms, 0225ms total)
T0EBC 000:411 JLINK_WriteReg(R0, 0x00000001)  returns 0x00 (0000ms, 0225ms total)
T0EBC 000:411 JLINK_WriteReg(R1, 0x044AA200)  returns 0x00 (0000ms, 0225ms total)
T0EBC 000:411 JLINK_WriteReg(R2, 0x00000001)  returns 0x00 (0000ms, 0225ms total)
T0EBC 000:411 JLINK_WriteReg(R3, 0x00000000)  returns 0x00 (0000ms, 0225ms total)
T0EBC 000:411 JLINK_WriteReg(R4, 0x00000000)  returns 0x00 (0000ms, 0225ms total)
T0EBC 000:411 JLINK_WriteReg(R5, 0x00000000)  returns 0x00 (0000ms, 0225ms total)
T0EBC 000:411 JLINK_WriteReg(R6, 0x00000000)  returns 0x00 (0000ms, 0225ms total)
T0EBC 000:411 JLINK_WriteReg(R7, 0x00000000)  returns 0x00 (0000ms, 0225ms total)
T0EBC 000:411 JLINK_WriteReg(R8, 0x00000000)  returns 0x00 (0000ms, 0225ms total)
T0EBC 000:411 JLINK_WriteReg(R9, 0x20000160)  returns 0x00 (0000ms, 0225ms total)
T0EBC 000:411 JLINK_WriteReg(R10, 0x00000000)  returns 0x00 (0000ms, 0225ms total)
T0EBC 000:411 JLINK_WriteReg(R11, 0x00000000)  returns 0x00 (0000ms, 0225ms total)
T0EBC 000:411 JLINK_WriteReg(R12, 0x00000000)  returns 0x00 (0000ms, 0225ms total)
T0EBC 000:411 JLINK_WriteReg(R13 (SP), 0x20001000)  returns 0x00 (0000ms, 0225ms total)
T0EBC 000:411 JLINK_WriteReg(R14, 0x20000001)  returns 0x00 (0000ms, 0225ms total)
T0EBC 000:411 JLINK_WriteReg(R15 (PC), 0x2000006A)  returns 0x00 (0000ms, 0225ms total)
T0EBC 000:411 JLINK_WriteReg(XPSR, 0x01000000)  returns 0x00 (0000ms, 0225ms total)
T0EBC 000:411 JLINK_WriteReg(MSP, 0x20001000)  returns 0x00 (0000ms, 0225ms total)
T0EBC 000:411 JLINK_WriteReg(PSP, 0x20001000)  returns 0x00 (0000ms, 0225ms total)
T0EBC 000:411 JLINK_WriteReg(CFBP, 0x00000000)  returns 0x00 (0000ms, 0225ms total)
T0EBC 000:411 JLINK_SetBPEx(Addr = 0x20000000, Type = 0xFFFFFFF2)  returns 0x00000003 (0000ms, 0225ms total)
T0EBC 000:411 JLINK_Go() -- CPU_ReadMem(4 bytes @ 0xE0001000) (0002ms, 0227ms total)
T0EBC 000:413 JLINK_IsHalted() -- CPU_ReadMem(2 bytes @ 0x20000000)  returns TRUE (0004ms, 0231ms total)
T0EBC 000:417 JLINK_ReadReg(R15 (PC))  returns 0x20000000 (0000ms, 0227ms total)
T0EBC 000:417 JLINK_ClrBPEx(BPHandle = 0x00000003)  returns 0x00 (0000ms, 0227ms total)
T0EBC 000:417 JLINK_ReadReg(R0)  returns 0x00000000 (0000ms, 0227ms total)
T0EBC 000:419 JLINK_WriteMem(0x20000000, 0x0164 Bytes, ...) - Data: 00 BE 0A E0 0D 78 2D 06 68 40 08 24 40 00 00 D3 ... -- CPU_WriteMem(356 bytes @ 0x20000000)  returns 0x164 (0003ms, 0230ms total)
T0EBC 000:422 JLINK_WriteReg(R0, 0x08000000)  returns 0x00 (0000ms, 0230ms total)
T0EBC 000:422 JLINK_WriteReg(R1, 0x044AA200)  returns 0x00 (0000ms, 0230ms total)
T0EBC 000:422 JLINK_WriteReg(R2, 0x00000002)  returns 0x00 (0000ms, 0230ms total)
T0EBC 000:422 JLINK_WriteReg(R3, 0x00000000)  returns 0x00 (0000ms, 0230ms total)
T0EBC 000:422 JLINK_WriteReg(R4, 0x00000000)  returns 0x00 (0000ms, 0230ms total)
T0EBC 000:422 JLINK_WriteReg(R5, 0x00000000)  returns 0x00 (0000ms, 0230ms total)
T0EBC 000:422 JLINK_WriteReg(R6, 0x00000000)  returns 0x00 (0000ms, 0230ms total)
T0EBC 000:422 JLINK_WriteReg(R7, 0x00000000)  returns 0x00 (0000ms, 0230ms total)
T0EBC 000:422 JLINK_WriteReg(R8, 0x00000000)  returns 0x00 (0000ms, 0230ms total)
T0EBC 000:422 JLINK_WriteReg(R9, 0x20000160)  returns 0x00 (0000ms, 0230ms total)
T0EBC 000:422 JLINK_WriteReg(R10, 0x00000000)  returns 0x00 (0000ms, 0230ms total)
T0EBC 000:422 JLINK_WriteReg(R11, 0x00000000)  returns 0x00 (0000ms, 0230ms total)
T0EBC 000:422 JLINK_WriteReg(R12, 0x00000000)  returns 0x00 (0000ms, 0230ms total)
T0EBC 000:422 JLINK_WriteReg(R13 (SP), 0x20001000)  returns 0x00 (0000ms, 0230ms total)
T0EBC 000:422 JLINK_WriteReg(R14, 0x20000001)  returns 0x00 (0000ms, 0230ms total)
T0EBC 000:422 JLINK_WriteReg(R15 (PC), 0x20000038)  returns 0x00 (0000ms, 0230ms total)
T0EBC 000:422 JLINK_WriteReg(XPSR, 0x01000000)  returns 0x00 (0000ms, 0230ms total)
T0EBC 000:422 JLINK_WriteReg(MSP, 0x20001000)  returns 0x00 (0000ms, 0230ms total)
T0EBC 000:422 JLINK_WriteReg(PSP, 0x20001000)  returns 0x00 (0000ms, 0230ms total)
T0EBC 000:422 JLINK_WriteReg(CFBP, 0x00000000)  returns 0x00 (0000ms, 0230ms total)
T0EBC 000:422 JLINK_SetBPEx(Addr = 0x20000000, Type = 0xFFFFFFF2) -- CPU_ReadMem(2 bytes @ 0x20000000)  returns 0x00000004 (0001ms, 0231ms total)
T0EBC 000:423 JLINK_Go() -- CPU_WriteMem(2 bytes @ 0x20000000) -- CPU_ReadMem(4 bytes @ 0xE0001000) (0003ms, 0234ms total)
T0EBC 000:426 JLINK_IsHalted() -- CPU_ReadMem(2 bytes @ 0x20000000)  returns TRUE (0004ms, 0238ms total)
T0EBC 000:430 JLINK_ReadReg(R15 (PC))  returns 0x20000000 (0000ms, 0234ms total)
T0EBC 000:430 JLINK_ClrBPEx(BPHandle = 0x00000004)  returns 0x00 (0000ms, 0234ms total)
T0EBC 000:430 JLINK_ReadReg(R0)  returns 0x00000000 (0000ms, 0234ms total)
T0EBC 000:430 JLINK_WriteMem(0x20000164, 0x0400 Bytes, ...) - Data: F8 2D 00 20 01 01 00 08 B9 12 00 08 C1 11 00 08 ... -- CPU_WriteMem(1024 bytes @ 0x20000164)  returns 0x400 (0006ms, 0240ms total)
T0EBC 000:436 JLINK_WriteReg(R0, 0x08000000)  returns 0x00 (0000ms, 0240ms total)
T0EBC 000:436 JLINK_WriteReg(R1, 0x00000400)  returns 0x00 (0000ms, 0240ms total)
T0EBC 000:436 JLINK_WriteReg(R2, 0x20000164)  returns 0x00 (0000ms, 0240ms total)
T0EBC 000:436 JLINK_WriteReg(R3, 0x00000000)  returns 0x00 (0000ms, 0240ms total)
T0EBC 000:436 JLINK_WriteReg(R4, 0x00000000)  returns 0x00 (0000ms, 0240ms total)
T0EBC 000:436 JLINK_WriteReg(R5, 0x00000000)  returns 0x00 (0000ms, 0240ms total)
T0EBC 000:436 JLINK_WriteReg(R6, 0x00000000)  returns 0x00 (0000ms, 0240ms total)
T0EBC 000:436 JLINK_WriteReg(R7, 0x00000000)  returns 0x00 (0000ms, 0240ms total)
T0EBC 000:436 JLINK_WriteReg(R8, 0x00000000)  returns 0x00 (0000ms, 0240ms total)
T0EBC 000:436 JLINK_WriteReg(R9, 0x20000160)  returns 0x00 (0000ms, 0240ms total)
T0EBC 000:436 JLINK_WriteReg(R10, 0x00000000)  returns 0x00 (0000ms, 0240ms total)
T0EBC 000:436 JLINK_WriteReg(R11, 0x00000000)  returns 0x00 (0000ms, 0240ms total)
T0EBC 000:436 JLINK_WriteReg(R12, 0x00000000)  returns 0x00 (0000ms, 0240ms total)
T0EBC 000:436 JLINK_WriteReg(R13 (SP), 0x20001000)  returns 0x00 (0000ms, 0240ms total)
T0EBC 000:436 JLINK_WriteReg(R14, 0x20000001)  returns 0x00 (0000ms, 0240ms total)
T0EBC 000:436 JLINK_WriteReg(R15 (PC), 0x200000F4)  returns 0x00 (0000ms, 0240ms total)
T0EBC 000:436 JLINK_WriteReg(XPSR, 0x01000000)  returns 0x00 (0000ms, 0240ms total)
T0EBC 000:436 JLINK_WriteReg(MSP, 0x20001000)  returns 0x00 (0000ms, 0240ms total)
T0EBC 000:436 JLINK_WriteReg(PSP, 0x20001000)  returns 0x00 (0000ms, 0240ms total)
T0EBC 000:436 JLINK_WriteReg(CFBP, 0x00000000)  returns 0x00 (0000ms, 0240ms total)
T0EBC 000:436 JLINK_SetBPEx(Addr = 0x20000000, Type = 0xFFFFFFF2)  returns 0x00000005 (0000ms, 0240ms total)
T0EBC 000:436 JLINK_Go() -- CPU_ReadMem(4 bytes @ 0xE0001000) (0003ms, 0243ms total)
T0EBC 000:439 JLINK_IsHalted()  returns FALSE (0000ms, 0243ms total)
T0EBC 000:502 JLINK_IsHalted() -- CPU_ReadMem(2 bytes @ 0x20000000)  returns TRUE (0004ms, 0247ms total)
T0EBC 000:506 JLINK_ReadReg(R15 (PC))  returns 0x20000000 (0000ms, 0243ms total)
T0EBC 000:506 JLINK_ClrBPEx(BPHandle = 0x00000005)  returns 0x00 (0000ms, 0243ms total)
T0EBC 000:506 JLINK_ReadReg(R0)  returns 0x00000000 (0000ms, 0243ms total)
T0EBC 000:506 JLINK_WriteMem(0x20000164, 0x0400 Bytes, ...) - Data: 08 00 00 20 10 B5 FF F7 91 FE 04 49 8C 69 FF F7 ... -- CPU_WriteMem(1024 bytes @ 0x20000164)  returns 0x400 (0006ms, 0249ms total)
T0EBC 000:512 JLINK_WriteReg(R0, 0x08000400)  returns 0x00 (0000ms, 0249ms total)
T0EBC 000:512 JLINK_WriteReg(R1, 0x00000400)  returns 0x00 (0000ms, 0249ms total)
T0EBC 000:512 JLINK_WriteReg(R2, 0x20000164)  returns 0x00 (0000ms, 0249ms total)
T0EBC 000:512 JLINK_WriteReg(R3, 0x00000000)  returns 0x00 (0000ms, 0249ms total)
T0EBC 000:512 JLINK_WriteReg(R4, 0x00000000)  returns 0x00 (0000ms, 0249ms total)
T0EBC 000:513 JLINK_WriteReg(R5, 0x00000000)  returns 0x00 (0000ms, 0250ms total)
T0EBC 000:513 JLINK_WriteReg(R6, 0x00000000)  returns 0x00 (0000ms, 0250ms total)
T0EBC 000:513 JLINK_WriteReg(R7, 0x00000000)  returns 0x00 (0000ms, 0250ms total)
T0EBC 000:513 JLINK_WriteReg(R8, 0x00000000)  returns 0x00 (0000ms, 0250ms total)
T0EBC 000:513 JLINK_WriteReg(R9, 0x20000160)  returns 0x00 (0000ms, 0250ms total)
T0EBC 000:513 JLINK_WriteReg(R10, 0x00000000)  returns 0x00 (0000ms, 0250ms total)
T0EBC 000:513 JLINK_WriteReg(R11, 0x00000000)  returns 0x00 (0000ms, 0250ms total)
T0EBC 000:513 JLINK_WriteReg(R12, 0x00000000)  returns 0x00 (0000ms, 0250ms total)
T0EBC 000:513 JLINK_WriteReg(R13 (SP), 0x20001000)  returns 0x00 (0000ms, 0250ms total)
T0EBC 000:513 JLINK_WriteReg(R14, 0x20000001)  returns 0x00 (0000ms, 0250ms total)
T0EBC 000:513 JLINK_WriteReg(R15 (PC), 0x200000F4)  returns 0x00 (0000ms, 0250ms total)
T0EBC 000:513 JLINK_WriteReg(XPSR, 0x01000000)  returns 0x00 (0000ms, 0250ms total)
T0EBC 000:513 JLINK_WriteReg(MSP, 0x20001000)  returns 0x00 (0000ms, 0250ms total)
T0EBC 000:513 JLINK_WriteReg(PSP, 0x20001000)  returns 0x00 (0000ms, 0250ms total)
T0EBC 000:513 JLINK_WriteReg(CFBP, 0x00000000)  returns 0x00 (0000ms, 0250ms total)
T0EBC 000:513 JLINK_SetBPEx(Addr = 0x20000000, Type = 0xFFFFFFF2)  returns 0x00000006 (0000ms, 0250ms total)
T0EBC 000:513 JLINK_Go() -- CPU_ReadMem(4 bytes @ 0xE0001000) (0002ms, 0252ms total)
T0EBC 000:515 JLINK_IsHalted()  returns FALSE (0000ms, 0252ms total)
T0EBC 000:586 JLINK_IsHalted() -- CPU_ReadMem(2 bytes @ 0x20000000)  returns TRUE (0004ms, 0256ms total)
T0EBC 000:590 JLINK_ReadReg(R15 (PC))  returns 0x20000000 (0000ms, 0252ms total)
T0EBC 000:590 JLINK_ClrBPEx(BPHandle = 0x00000006)  returns 0x00 (0000ms, 0252ms total)
T0EBC 000:590 JLINK_ReadReg(R0)  returns 0x00000000 (0000ms, 0252ms total)
T0EBC 000:590 JLINK_WriteMem(0x20000164, 0x0400 Bytes, ...) - Data: 00 00 FA 05 2D E9 F0 47 DF F8 70 81 05 46 0E 46 ... -- CPU_WriteMem(1024 bytes @ 0x20000164)  returns 0x400 (0006ms, 0258ms total)
T0EBC 000:596 JLINK_WriteReg(R0, 0x08000800)  returns 0x00 (0000ms, 0258ms total)
T0EBC 000:596 JLINK_WriteReg(R1, 0x00000400)  returns 0x00 (0000ms, 0258ms total)
T0EBC 000:596 JLINK_WriteReg(R2, 0x20000164)  returns 0x00 (0000ms, 0258ms total)
T0EBC 000:596 JLINK_WriteReg(R3, 0x00000000)  returns 0x00 (0000ms, 0258ms total)
T0EBC 000:596 JLINK_WriteReg(R4, 0x00000000)  returns 0x00 (0000ms, 0258ms total)
T0EBC 000:596 JLINK_WriteReg(R5, 0x00000000)  returns 0x00 (0000ms, 0258ms total)
T0EBC 000:596 JLINK_WriteReg(R6, 0x00000000)  returns 0x00 (0000ms, 0258ms total)
T0EBC 000:596 JLINK_WriteReg(R7, 0x00000000)  returns 0x00 (0000ms, 0258ms total)
T0EBC 000:596 JLINK_WriteReg(R8, 0x00000000)  returns 0x00 (0000ms, 0258ms total)
T0EBC 000:596 JLINK_WriteReg(R9, 0x20000160)  returns 0x00 (0000ms, 0258ms total)
T0EBC 000:596 JLINK_WriteReg(R10, 0x00000000)  returns 0x00 (0000ms, 0258ms total)
T0EBC 000:596 JLINK_WriteReg(R11, 0x00000000)  returns 0x00 (0000ms, 0258ms total)
T0EBC 000:596 JLINK_WriteReg(R12, 0x00000000)  returns 0x00 (0000ms, 0258ms total)
T0EBC 000:596 JLINK_WriteReg(R13 (SP), 0x20001000)  returns 0x00 (0000ms, 0258ms total)
T0EBC 000:596 JLINK_WriteReg(R14, 0x20000001)  returns 0x00 (0000ms, 0258ms total)
T0EBC 000:596 JLINK_WriteReg(R15 (PC), 0x200000F4)  returns 0x00 (0000ms, 0258ms total)
T0EBC 000:596 JLINK_WriteReg(XPSR, 0x01000000)  returns 0x00 (0000ms, 0258ms total)
T0EBC 000:596 JLINK_WriteReg(MSP, 0x20001000)  returns 0x00 (0000ms, 0258ms total)
T0EBC 000:597 JLINK_WriteReg(PSP, 0x20001000)  returns 0x00 (0000ms, 0258ms total)
T0EBC 000:597 JLINK_WriteReg(CFBP, 0x00000000)  returns 0x00 (0000ms, 0258ms total)
T0EBC 000:597 JLINK_SetBPEx(Addr = 0x20000000, Type = 0xFFFFFFF2)  returns 0x00000007 (0000ms, 0258ms total)
T0EBC 000:597 JLINK_Go() -- CPU_ReadMem(4 bytes @ 0xE0001000) (0002ms, 0260ms total)
T0EBC 000:599 JLINK_IsHalted()  returns FALSE (0000ms, 0260ms total)
T0EBC 000:676 JLINK_IsHalted() -- CPU_ReadMem(2 bytes @ 0x20000000)  returns TRUE (0004ms, 0264ms total)
T0EBC 000:680 JLINK_ReadReg(R15 (PC))  returns 0x20000000 (0000ms, 0260ms total)
T0EBC 000:680 JLINK_ClrBPEx(BPHandle = 0x00000007)  returns 0x00 (0000ms, 0260ms total)
T0EBC 000:680 JLINK_ReadReg(R0)  returns 0x00000000 (0000ms, 0260ms total)
T0EBC 000:681 JLINK_WriteMem(0x20000164, 0x0400 Bytes, ...) - Data: B0 FA 80 F0 48 F8 20 60 FF F7 60 FD 82 46 07 E0 ... -- CPU_WriteMem(1024 bytes @ 0x20000164)  returns 0x400 (0006ms, 0266ms total)
T0EBC 000:687 JLINK_WriteReg(R0, 0x08000C00)  returns 0x00 (0000ms, 0266ms total)
T0EBC 000:687 JLINK_WriteReg(R1, 0x00000400)  returns 0x00 (0000ms, 0266ms total)
T0EBC 000:687 JLINK_WriteReg(R2, 0x20000164)  returns 0x00 (0000ms, 0266ms total)
T0EBC 000:687 JLINK_WriteReg(R3, 0x00000000)  returns 0x00 (0000ms, 0266ms total)
T0EBC 000:687 JLINK_WriteReg(R4, 0x00000000)  returns 0x00 (0000ms, 0266ms total)
T0EBC 000:687 JLINK_WriteReg(R5, 0x00000000)  returns 0x00 (0000ms, 0266ms total)
T0EBC 000:687 JLINK_WriteReg(R6, 0x00000000)  returns 0x00 (0000ms, 0266ms total)
T0EBC 000:687 JLINK_WriteReg(R7, 0x00000000)  returns 0x00 (0000ms, 0266ms total)
T0EBC 000:687 JLINK_WriteReg(R8, 0x00000000)  returns 0x00 (0000ms, 0266ms total)
T0EBC 000:687 JLINK_WriteReg(R9, 0x20000160)  returns 0x00 (0000ms, 0266ms total)
T0EBC 000:687 JLINK_WriteReg(R10, 0x00000000)  returns 0x00 (0000ms, 0266ms total)
T0EBC 000:687 JLINK_WriteReg(R11, 0x00000000)  returns 0x00 (0000ms, 0266ms total)
T0EBC 000:687 JLINK_WriteReg(R12, 0x00000000)  returns 0x00 (0000ms, 0266ms total)
T0EBC 000:687 JLINK_WriteReg(R13 (SP), 0x20001000)  returns 0x00 (0000ms, 0266ms total)
T0EBC 000:687 JLINK_WriteReg(R14, 0x20000001)  returns 0x00 (0000ms, 0266ms total)
T0EBC 000:687 JLINK_WriteReg(R15 (PC), 0x200000F4)  returns 0x00 (0000ms, 0266ms total)
T0EBC 000:687 JLINK_WriteReg(XPSR, 0x01000000)  returns 0x00 (0000ms, 0266ms total)
T0EBC 000:687 JLINK_WriteReg(MSP, 0x20001000)  returns 0x00 (0000ms, 0266ms total)
T0EBC 000:687 JLINK_WriteReg(PSP, 0x20001000)  returns 0x00 (0000ms, 0266ms total)
T0EBC 000:687 JLINK_WriteReg(CFBP, 0x00000000)  returns 0x00 (0000ms, 0266ms total)
T0EBC 000:687 JLINK_SetBPEx(Addr = 0x20000000, Type = 0xFFFFFFF2)  returns 0x00000008 (0000ms, 0266ms total)
T0EBC 000:687 JLINK_Go() -- CPU_ReadMem(4 bytes @ 0xE0001000) (0002ms, 0268ms total)
T0EBC 000:689 JLINK_IsHalted()  returns FALSE (0000ms, 0268ms total)
T0EBC 000:764 JLINK_IsHalted() -- CPU_ReadMem(2 bytes @ 0x20000000)  returns TRUE (0004ms, 0272ms total)
T0EBC 000:768 JLINK_ReadReg(R15 (PC))  returns 0x20000000 (0000ms, 0268ms total)
T0EBC 000:768 JLINK_ClrBPEx(BPHandle = 0x00000008)  returns 0x00 (0000ms, 0268ms total)
T0EBC 000:768 JLINK_ReadReg(R0)  returns 0x00000000 (0000ms, 0268ms total)
T0EBC 000:768 JLINK_WriteMem(0x20000164, 0x0400 Bytes, ...) - Data: E0 21 04 28 08 69 03 D0 20 F0 04 00 08 61 70 47 ... -- CPU_WriteMem(1024 bytes @ 0x20000164)  returns 0x400 (0006ms, 0274ms total)
T0EBC 000:774 JLINK_WriteReg(R0, 0x08001000)  returns 0x00 (0000ms, 0274ms total)
T0EBC 000:774 JLINK_WriteReg(R1, 0x00000400)  returns 0x00 (0001ms, 0275ms total)
T0EBC 000:775 JLINK_WriteReg(R2, 0x20000164)  returns 0x00 (0000ms, 0275ms total)
T0EBC 000:775 JLINK_WriteReg(R3, 0x00000000)  returns 0x00 (0000ms, 0275ms total)
T0EBC 000:775 JLINK_WriteReg(R4, 0x00000000)  returns 0x00 (0000ms, 0275ms total)
T0EBC 000:775 JLINK_WriteReg(R5, 0x00000000)  returns 0x00 (0000ms, 0275ms total)
T0EBC 000:775 JLINK_WriteReg(R6, 0x00000000)  returns 0x00 (0000ms, 0275ms total)
T0EBC 000:775 JLINK_WriteReg(R7, 0x00000000)  returns 0x00 (0000ms, 0275ms total)
T0EBC 000:775 JLINK_WriteReg(R8, 0x00000000)  returns 0x00 (0000ms, 0275ms total)
T0EBC 000:775 JLINK_WriteReg(R9, 0x20000160)  returns 0x00 (0000ms, 0275ms total)
T0EBC 000:775 JLINK_WriteReg(R10, 0x00000000)  returns 0x00 (0000ms, 0275ms total)
T0EBC 000:775 JLINK_WriteReg(R11, 0x00000000)  returns 0x00 (0000ms, 0275ms total)
T0EBC 000:775 JLINK_WriteReg(R12, 0x00000000)  returns 0x00 (0000ms, 0275ms total)
T0EBC 000:775 JLINK_WriteReg(R13 (SP), 0x20001000)  returns 0x00 (0000ms, 0275ms total)
T0EBC 000:775 JLINK_WriteReg(R14, 0x20000001)  returns 0x00 (0000ms, 0275ms total)
T0EBC 000:775 JLINK_WriteReg(R15 (PC), 0x200000F4)  returns 0x00 (0000ms, 0275ms total)
T0EBC 000:775 JLINK_WriteReg(XPSR, 0x01000000)  returns 0x00 (0000ms, 0275ms total)
T0EBC 000:775 JLINK_WriteReg(MSP, 0x20001000)  returns 0x00 (0000ms, 0275ms total)
T0EBC 000:775 JLINK_WriteReg(PSP, 0x20001000)  returns 0x00 (0000ms, 0275ms total)
T0EBC 000:775 JLINK_WriteReg(CFBP, 0x00000000)  returns 0x00 (0000ms, 0275ms total)
T0EBC 000:775 JLINK_SetBPEx(Addr = 0x20000000, Type = 0xFFFFFFF2)  returns 0x00000009 (0000ms, 0275ms total)
T0EBC 000:775 JLINK_Go() -- CPU_ReadMem(4 bytes @ 0xE0001000) (0004ms, 0279ms total)
T0EBC 000:779 JLINK_IsHalted()  returns FALSE (0001ms, 0280ms total)
T0EBC 000:811 JLINK_IsHalted() -- CPU_ReadMem(2 bytes @ 0x20000000)  returns TRUE (0003ms, 0282ms total)
T0EBC 000:814 JLINK_ReadReg(R15 (PC))  returns 0x20000000 (0001ms, 0280ms total)
T0EBC 000:815 JLINK_ClrBPEx(BPHandle = 0x00000009)  returns 0x00 (0000ms, 0280ms total)
T0EBC 000:815 JLINK_ReadReg(R0)  returns 0x00000000 (0000ms, 0280ms total)
T0EBC 000:815 JLINK_WriteMem(0x20000164, 0x0400 Bytes, ...) - Data: 01 F0 DE F8 BD E8 10 40 FF F7 67 BF 10 BD 00 00 ... -- CPU_WriteMem(1024 bytes @ 0x20000164)  returns 0x400 (0006ms, 0286ms total)
T0EBC 000:821 JLINK_WriteReg(R0, 0x08001400)  returns 0x00 (0000ms, 0286ms total)
T0EBC 000:821 JLINK_WriteReg(R1, 0x00000400)  returns 0x00 (0000ms, 0286ms total)
T0EBC 000:821 JLINK_WriteReg(R2, 0x20000164)  returns 0x00 (0000ms, 0286ms total)
T0EBC 000:821 JLINK_WriteReg(R3, 0x00000000)  returns 0x00 (0000ms, 0286ms total)
T0EBC 000:821 JLINK_WriteReg(R4, 0x00000000)  returns 0x00 (0000ms, 0286ms total)
T0EBC 000:821 JLINK_WriteReg(R5, 0x00000000)  returns 0x00 (0000ms, 0286ms total)
T0EBC 000:821 JLINK_WriteReg(R6, 0x00000000)  returns 0x00 (0000ms, 0286ms total)
T0EBC 000:821 JLINK_WriteReg(R7, 0x00000000)  returns 0x00 (0000ms, 0286ms total)
T0EBC 000:821 JLINK_WriteReg(R8, 0x00000000)  returns 0x00 (0000ms, 0286ms total)
T0EBC 000:821 JLINK_WriteReg(R9, 0x20000160)  returns 0x00 (0000ms, 0286ms total)
T0EBC 000:821 JLINK_WriteReg(R10, 0x00000000)  returns 0x00 (0000ms, 0286ms total)
T0EBC 000:821 JLINK_WriteReg(R11, 0x00000000)  returns 0x00 (0000ms, 0286ms total)
T0EBC 000:821 JLINK_WriteReg(R12, 0x00000000)  returns 0x00 (0000ms, 0286ms total)
T0EBC 000:821 JLINK_WriteReg(R13 (SP), 0x20001000)  returns 0x00 (0000ms, 0286ms total)
T0EBC 000:821 JLINK_WriteReg(R14, 0x20000001)  returns 0x00 (0000ms, 0286ms total)
T0EBC 000:821 JLINK_WriteReg(R15 (PC), 0x200000F4)  returns 0x00 (0000ms, 0286ms total)
T0EBC 000:821 JLINK_WriteReg(XPSR, 0x01000000)  returns 0x00 (0000ms, 0286ms total)
T0EBC 000:821 JLINK_WriteReg(MSP, 0x20001000)  returns 0x00 (0000ms, 0286ms total)
T0EBC 000:821 JLINK_WriteReg(PSP, 0x20001000)  returns 0x00 (0000ms, 0286ms total)
T0EBC 000:821 JLINK_WriteReg(CFBP, 0x00000000)  returns 0x00 (0000ms, 0286ms total)
T0EBC 000:821 JLINK_SetBPEx(Addr = 0x20000000, Type = 0xFFFFFFF2)  returns 0x0000000A (0000ms, 0286ms total)
T0EBC 000:821 JLINK_Go() -- CPU_ReadMem(4 bytes @ 0xE0001000) (0002ms, 0288ms total)
T0EBC 000:823 JLINK_IsHalted()  returns FALSE (0001ms, 0289ms total)
T0EBC 000:829 JLINK_IsHalted()  returns FALSE (0000ms, 0288ms total)
T0EBC 000:831 JLINK_IsHalted()  returns FALSE (0000ms, 0288ms total)
T0EBC 000:832 JLINK_IsHalted()  returns FALSE (0000ms, 0288ms total)
T0EBC 000:834 JLINK_IsHalted()  returns FALSE (0000ms, 0288ms total)
T0EBC 000:835 JLINK_IsHalted()  returns FALSE (0001ms, 0289ms total)
T0EBC 000:838 JLINK_IsHalted()  returns FALSE (0001ms, 0289ms total)
T0EBC 000:840 JLINK_IsHalted()  returns FALSE (0001ms, 0289ms total)
T0EBC 000:842 JLINK_IsHalted()  returns FALSE (0001ms, 0289ms total)
T0EBC 000:844 JLINK_IsHalted()  returns FALSE (0001ms, 0289ms total)
T0EBC 000:846 JLINK_IsHalted()  returns FALSE (0001ms, 0289ms total)
T0EBC 000:848 JLINK_IsHalted()  returns FALSE (0001ms, 0289ms total)
T0EBC 000:853 JLINK_IsHalted()  returns FALSE (0000ms, 0288ms total)
T0EBC 000:855 JLINK_IsHalted() -- CPU_ReadMem(2 bytes @ 0x20000000)  returns TRUE (0003ms, 0291ms total)
T0EBC 000:858 JLINK_ReadReg(R15 (PC))  returns 0x20000000 (0000ms, 0288ms total)
T0EBC 000:858 JLINK_ClrBPEx(BPHandle = 0x0000000A)  returns 0x00 (0000ms, 0288ms total)
T0EBC 000:858 JLINK_ReadReg(R0)  returns 0x00000000 (0000ms, 0288ms total)
T0EBC 000:859 JLINK_WriteMem(0x20000164, 0x0400 Bytes, ...) - Data: 01 08 C6 F8 20 80 0C B1 70 6A 20 60 34 6A FE F7 ... -- CPU_WriteMem(1024 bytes @ 0x20000164)  returns 0x400 (0006ms, 0294ms total)
T0EBC 000:865 JLINK_WriteReg(R0, 0x08001800)  returns 0x00 (0000ms, 0294ms total)
T0EBC 000:865 JLINK_WriteReg(R1, 0x00000400)  returns 0x00 (0000ms, 0294ms total)
T0EBC 000:865 JLINK_WriteReg(R2, 0x20000164)  returns 0x00 (0000ms, 0294ms total)
T0EBC 000:865 JLINK_WriteReg(R3, 0x00000000)  returns 0x00 (0000ms, 0294ms total)
T0EBC 000:865 JLINK_WriteReg(R4, 0x00000000)  returns 0x00 (0000ms, 0294ms total)
T0EBC 000:865 JLINK_WriteReg(R5, 0x00000000)  returns 0x00 (0000ms, 0294ms total)
T0EBC 000:865 JLINK_WriteReg(R6, 0x00000000)  returns 0x00 (0000ms, 0294ms total)
T0EBC 000:865 JLINK_WriteReg(R7, 0x00000000)  returns 0x00 (0000ms, 0294ms total)
T0EBC 000:865 JLINK_WriteReg(R8, 0x00000000)  returns 0x00 (0000ms, 0294ms total)
T0EBC 000:865 JLINK_WriteReg(R9, 0x20000160)  returns 0x00 (0000ms, 0294ms total)
T0EBC 000:865 JLINK_WriteReg(R10, 0x00000000)  returns 0x00 (0000ms, 0294ms total)
T0EBC 000:865 JLINK_WriteReg(R11, 0x00000000)  returns 0x00 (0000ms, 0294ms total)
T0EBC 000:865 JLINK_WriteReg(R12, 0x00000000)  returns 0x00 (0000ms, 0294ms total)
T0EBC 000:865 JLINK_WriteReg(R13 (SP), 0x20001000)  returns 0x00 (0000ms, 0294ms total)
T0EBC 000:865 JLINK_WriteReg(R14, 0x20000001)  returns 0x00 (0000ms, 0294ms total)
T0EBC 000:865 JLINK_WriteReg(R15 (PC), 0x200000F4)  returns 0x00 (0000ms, 0294ms total)
T0EBC 000:865 JLINK_WriteReg(XPSR, 0x01000000)  returns 0x00 (0000ms, 0294ms total)
T0EBC 000:865 JLINK_WriteReg(MSP, 0x20001000)  returns 0x00 (0000ms, 0294ms total)
T0EBC 000:865 JLINK_WriteReg(PSP, 0x20001000)  returns 0x00 (0000ms, 0294ms total)
T0EBC 000:865 JLINK_WriteReg(CFBP, 0x00000000)  returns 0x00 (0000ms, 0294ms total)
T0EBC 000:865 JLINK_SetBPEx(Addr = 0x20000000, Type = 0xFFFFFFF2)  returns 0x0000000B (0000ms, 0294ms total)
T0EBC 000:865 JLINK_Go() -- CPU_ReadMem(4 bytes @ 0xE0001000) (0002ms, 0296ms total)
T0EBC 000:867 JLINK_IsHalted()  returns FALSE (0001ms, 0297ms total)
T0EBC 000:871 JLINK_IsHalted()  returns FALSE (0001ms, 0297ms total)
T0EBC 000:873 JLINK_IsHalted()  returns FALSE (0001ms, 0297ms total)
T0EBC 000:875 JLINK_IsHalted()  returns FALSE (0001ms, 0297ms total)
T0EBC 000:877 JLINK_IsHalted()  returns FALSE (0001ms, 0297ms total)
T0EBC 000:879 JLINK_IsHalted()  returns FALSE (0001ms, 0297ms total)
T0EBC 000:881 JLINK_IsHalted()  returns FALSE (0001ms, 0297ms total)
T0EBC 000:883 JLINK_IsHalted()  returns FALSE (0001ms, 0297ms total)
T0EBC 000:886 JLINK_IsHalted()  returns FALSE (0001ms, 0297ms total)
T0EBC 000:888 JLINK_IsHalted()  returns FALSE (0001ms, 0297ms total)
T0EBC 000:890 JLINK_IsHalted()  returns FALSE (0001ms, 0297ms total)
T0EBC 000:892 JLINK_IsHalted()  returns FALSE (0001ms, 0297ms total)
T0EBC 000:894 JLINK_IsHalted()  returns FALSE (0001ms, 0297ms total)
T0EBC 000:897 JLINK_IsHalted()  returns FALSE (0001ms, 0297ms total)
T0EBC 000:899 JLINK_IsHalted() -- CPU_ReadMem(2 bytes @ 0x20000000)  returns TRUE (0004ms, 0300ms total)
T0EBC 000:903 JLINK_ReadReg(R15 (PC))  returns 0x20000000 (0000ms, 0296ms total)
T0EBC 000:903 JLINK_ClrBPEx(BPHandle = 0x0000000B)  returns 0x00 (0000ms, 0296ms total)
T0EBC 000:903 JLINK_ReadReg(R0)  returns 0x00000000 (0000ms, 0296ms total)
T0EBC 000:904 JLINK_WriteMem(0x20000164, 0x0400 Bytes, ...) - Data: 46 F6 31 60 10 E0 46 F2 73 20 B9 F1 20 0F 0B D2 ... -- CPU_WriteMem(1024 bytes @ 0x20000164)  returns 0x400 (0006ms, 0302ms total)
T0EBC 000:910 JLINK_WriteReg(R0, 0x08001C00)  returns 0x00 (0000ms, 0302ms total)
T0EBC 000:910 JLINK_WriteReg(R1, 0x00000400)  returns 0x00 (0000ms, 0302ms total)
T0EBC 000:910 JLINK_WriteReg(R2, 0x20000164)  returns 0x00 (0000ms, 0302ms total)
T0EBC 000:910 JLINK_WriteReg(R3, 0x00000000)  returns 0x00 (0000ms, 0302ms total)
T0EBC 000:910 JLINK_WriteReg(R4, 0x00000000)  returns 0x00 (0000ms, 0302ms total)
T0EBC 000:910 JLINK_WriteReg(R5, 0x00000000)  returns 0x00 (0000ms, 0302ms total)
T0EBC 000:910 JLINK_WriteReg(R6, 0x00000000)  returns 0x00 (0000ms, 0302ms total)
T0EBC 000:910 JLINK_WriteReg(R7, 0x00000000)  returns 0x00 (0000ms, 0302ms total)
T0EBC 000:910 JLINK_WriteReg(R8, 0x00000000)  returns 0x00 (0000ms, 0302ms total)
T0EBC 000:910 JLINK_WriteReg(R9, 0x20000160)  returns 0x00 (0000ms, 0302ms total)
T0EBC 000:910 JLINK_WriteReg(R10, 0x00000000)  returns 0x00 (0000ms, 0302ms total)
T0EBC 000:910 JLINK_WriteReg(R11, 0x00000000)  returns 0x00 (0000ms, 0302ms total)
T0EBC 000:910 JLINK_WriteReg(R12, 0x00000000)  returns 0x00 (0000ms, 0302ms total)
T0EBC 000:910 JLINK_WriteReg(R13 (SP), 0x20001000)  returns 0x00 (0000ms, 0302ms total)
T0EBC 000:910 JLINK_WriteReg(R14, 0x20000001)  returns 0x00 (0000ms, 0302ms total)
T0EBC 000:910 JLINK_WriteReg(R15 (PC), 0x200000F4)  returns 0x00 (0000ms, 0302ms total)
T0EBC 000:910 JLINK_WriteReg(XPSR, 0x01000000)  returns 0x00 (0000ms, 0302ms total)
T0EBC 000:910 JLINK_WriteReg(MSP, 0x20001000)  returns 0x00 (0000ms, 0302ms total)
T0EBC 000:910 JLINK_WriteReg(PSP, 0x20001000)  returns 0x00 (0000ms, 0302ms total)
T0EBC 000:910 JLINK_WriteReg(CFBP, 0x00000000)  returns 0x00 (0000ms, 0302ms total)
T0EBC 000:910 JLINK_SetBPEx(Addr = 0x20000000, Type = 0xFFFFFFF2)  returns 0x0000000C (0000ms, 0302ms total)
T0EBC 000:910 JLINK_Go() -- CPU_ReadMem(4 bytes @ 0xE0001000) (0003ms, 0305ms total)
T0EBC 000:913 JLINK_IsHalted()  returns FALSE (0000ms, 0305ms total)
T0EBC 000:916 JLINK_IsHalted()  returns FALSE (0000ms, 0305ms total)
T0EBC 000:918 JLINK_IsHalted()  returns FALSE (0000ms, 0305ms total)
T0EBC 000:920 JLINK_IsHalted()  returns FALSE (0000ms, 0305ms total)
T0EBC 000:922 JLINK_IsHalted()  returns FALSE (0000ms, 0305ms total)
T0EBC 000:924 JLINK_IsHalted()  returns FALSE (0000ms, 0305ms total)
T0EBC 000:926 JLINK_IsHalted()  returns FALSE (0000ms, 0305ms total)
T0EBC 000:929 JLINK_IsHalted()  returns FALSE (0001ms, 0306ms total)
T0EBC 000:931 JLINK_IsHalted()  returns FALSE (0001ms, 0306ms total)
T0EBC 000:933 JLINK_IsHalted()  returns FALSE (0001ms, 0306ms total)
T0EBC 000:935 JLINK_IsHalted()  returns FALSE (0001ms, 0306ms total)
T0EBC 000:937 JLINK_IsHalted()  returns FALSE (0001ms, 0306ms total)
T0EBC 000:939 JLINK_IsHalted()  returns FALSE (0001ms, 0306ms total)
T0EBC 000:941 JLINK_IsHalted()  returns FALSE (0001ms, 0306ms total)
T0EBC 000:945 JLINK_IsHalted() -- CPU_ReadMem(2 bytes @ 0x20000000)  returns TRUE (0003ms, 0308ms total)
T0EBC 000:948 JLINK_ReadReg(R15 (PC))  returns 0x20000000 (0000ms, 0305ms total)
T0EBC 000:948 JLINK_ClrBPEx(BPHandle = 0x0000000C)  returns 0x00 (0000ms, 0305ms total)
T0EBC 000:948 JLINK_ReadReg(R0)  returns 0x00000000 (0000ms, 0305ms total)
T0EBC 000:949 JLINK_WriteMem(0x20000164, 0x0400 Bytes, ...) - Data: 20 60 FE F7 67 FA 29 68 0A 6C 80 1A C1 F8 A4 00 ... -- CPU_WriteMem(1024 bytes @ 0x20000164)  returns 0x400 (0006ms, 0311ms total)
T0EBC 000:955 JLINK_WriteReg(R0, 0x08002000)  returns 0x00 (0000ms, 0311ms total)
T0EBC 000:955 JLINK_WriteReg(R1, 0x00000400)  returns 0x00 (0000ms, 0311ms total)
T0EBC 000:955 JLINK_WriteReg(R2, 0x20000164)  returns 0x00 (0000ms, 0311ms total)
T0EBC 000:955 JLINK_WriteReg(R3, 0x00000000)  returns 0x00 (0000ms, 0311ms total)
T0EBC 000:955 JLINK_WriteReg(R4, 0x00000000)  returns 0x00 (0000ms, 0311ms total)
T0EBC 000:955 JLINK_WriteReg(R5, 0x00000000)  returns 0x00 (0000ms, 0311ms total)
T0EBC 000:955 JLINK_WriteReg(R6, 0x00000000)  returns 0x00 (0000ms, 0311ms total)
T0EBC 000:955 JLINK_WriteReg(R7, 0x00000000)  returns 0x00 (0000ms, 0311ms total)
T0EBC 000:955 JLINK_WriteReg(R8, 0x00000000)  returns 0x00 (0000ms, 0311ms total)
T0EBC 000:955 JLINK_WriteReg(R9, 0x20000160)  returns 0x00 (0000ms, 0311ms total)
T0EBC 000:955 JLINK_WriteReg(R10, 0x00000000)  returns 0x00 (0000ms, 0311ms total)
T0EBC 000:955 JLINK_WriteReg(R11, 0x00000000)  returns 0x00 (0000ms, 0311ms total)
T0EBC 000:955 JLINK_WriteReg(R12, 0x00000000)  returns 0x00 (0000ms, 0311ms total)
T0EBC 000:955 JLINK_WriteReg(R13 (SP), 0x20001000)  returns 0x00 (0000ms, 0311ms total)
T0EBC 000:955 JLINK_WriteReg(R14, 0x20000001)  returns 0x00 (0000ms, 0311ms total)
T0EBC 000:955 JLINK_WriteReg(R15 (PC), 0x200000F4)  returns 0x00 (0000ms, 0311ms total)
T0EBC 000:955 JLINK_WriteReg(XPSR, 0x01000000)  returns 0x00 (0000ms, 0311ms total)
T0EBC 000:955 JLINK_WriteReg(MSP, 0x20001000)  returns 0x00 (0000ms, 0311ms total)
T0EBC 000:955 JLINK_WriteReg(PSP, 0x20001000)  returns 0x00 (0000ms, 0311ms total)
T0EBC 000:955 JLINK_WriteReg(CFBP, 0x00000000)  returns 0x00 (0000ms, 0311ms total)
T0EBC 000:955 JLINK_SetBPEx(Addr = 0x20000000, Type = 0xFFFFFFF2)  returns 0x0000000D (0000ms, 0311ms total)
T0EBC 000:955 JLINK_Go() -- CPU_ReadMem(4 bytes @ 0xE0001000) (0004ms, 0315ms total)
T0EBC 000:959 JLINK_IsHalted()  returns FALSE (0001ms, 0316ms total)
T0EBC 000:963 JLINK_IsHalted()  returns FALSE (0001ms, 0316ms total)
T0EBC 000:965 JLINK_IsHalted()  returns FALSE (0001ms, 0316ms total)
T0EBC 000:967 JLINK_IsHalted()  returns FALSE (0001ms, 0316ms total)
T0EBC 000:969 JLINK_IsHalted()  returns FALSE (0000ms, 0315ms total)
T0EBC 000:971 JLINK_IsHalted()  returns FALSE (0000ms, 0315ms total)
T0EBC 000:973 JLINK_IsHalted()  returns FALSE (0000ms, 0315ms total)
T0EBC 000:977 JLINK_IsHalted()  returns FALSE (0000ms, 0315ms total)
T0EBC 000:979 JLINK_IsHalted()  returns FALSE (0000ms, 0315ms total)
T0EBC 000:981 JLINK_IsHalted()  returns FALSE (0000ms, 0315ms total)
T0EBC 000:983 JLINK_IsHalted()  returns FALSE (0000ms, 0315ms total)
T0EBC 000:985 JLINK_IsHalted()  returns FALSE (0000ms, 0315ms total)
T0EBC 000:987 JLINK_IsHalted()  returns FALSE (0000ms, 0315ms total)
T0EBC 000:990 JLINK_IsHalted() -- CPU_ReadMem(2 bytes @ 0x20000000)  returns TRUE (0003ms, 0318ms total)
T0EBC 000:993 JLINK_ReadReg(R15 (PC))  returns 0x20000000 (0000ms, 0315ms total)
T0EBC 000:993 JLINK_ClrBPEx(BPHandle = 0x0000000D)  returns 0x00 (0000ms, 0315ms total)
T0EBC 000:993 JLINK_ReadReg(R0)  returns 0x00000000 (0000ms, 0315ms total)
T0EBC 000:994 JLINK_WriteMem(0x20000164, 0x0400 Bytes, ...) - Data: 9A F8 00 60 16 B1 46 F6 63 50 A3 E0 15 F0 0E 06 ... -- CPU_WriteMem(1024 bytes @ 0x20000164)  returns 0x400 (0006ms, 0321ms total)
T0EBC 001:000 JLINK_WriteReg(R0, 0x08002400)  returns 0x00 (0000ms, 0321ms total)
T0EBC 001:000 JLINK_WriteReg(R1, 0x00000400)  returns 0x00 (0000ms, 0321ms total)
T0EBC 001:000 JLINK_WriteReg(R2, 0x20000164)  returns 0x00 (0000ms, 0321ms total)
T0EBC 001:000 JLINK_WriteReg(R3, 0x00000000)  returns 0x00 (0000ms, 0321ms total)
T0EBC 001:000 JLINK_WriteReg(R4, 0x00000000)  returns 0x00 (0000ms, 0321ms total)
T0EBC 001:000 JLINK_WriteReg(R5, 0x00000000)  returns 0x00 (0000ms, 0321ms total)
T0EBC 001:000 JLINK_WriteReg(R6, 0x00000000)  returns 0x00 (0000ms, 0321ms total)
T0EBC 001:000 JLINK_WriteReg(R7, 0x00000000)  returns 0x00 (0000ms, 0321ms total)
T0EBC 001:000 JLINK_WriteReg(R8, 0x00000000)  returns 0x00 (0000ms, 0321ms total)
T0EBC 001:000 JLINK_WriteReg(R9, 0x20000160)  returns 0x00 (0000ms, 0321ms total)
T0EBC 001:000 JLINK_WriteReg(R10, 0x00000000)  returns 0x00 (0000ms, 0321ms total)
T0EBC 001:000 JLINK_WriteReg(R11, 0x00000000)  returns 0x00 (0000ms, 0321ms total)
T0EBC 001:000 JLINK_WriteReg(R12, 0x00000000)  returns 0x00 (0000ms, 0321ms total)
T0EBC 001:000 JLINK_WriteReg(R13 (SP), 0x20001000)  returns 0x00 (0000ms, 0321ms total)
T0EBC 001:000 JLINK_WriteReg(R14, 0x20000001)  returns 0x00 (0000ms, 0321ms total)
T0EBC 001:000 JLINK_WriteReg(R15 (PC), 0x200000F4)  returns 0x00 (0000ms, 0321ms total)
T0EBC 001:000 JLINK_WriteReg(XPSR, 0x01000000)  returns 0x00 (0000ms, 0321ms total)
T0EBC 001:000 JLINK_WriteReg(MSP, 0x20001000)  returns 0x00 (0000ms, 0321ms total)
T0EBC 001:000 JLINK_WriteReg(PSP, 0x20001000)  returns 0x00 (0000ms, 0321ms total)
T0EBC 001:000 JLINK_WriteReg(CFBP, 0x00000000)  returns 0x00 (0000ms, 0321ms total)
T0EBC 001:000 JLINK_SetBPEx(Addr = 0x20000000, Type = 0xFFFFFFF2)  returns 0x0000000E (0000ms, 0321ms total)
T0EBC 001:000 JLINK_Go() -- CPU_ReadMem(4 bytes @ 0xE0001000) (0002ms, 0323ms total)
T0EBC 001:002 JLINK_IsHalted()  returns FALSE (0001ms, 0324ms total)
T0EBC 001:004 JLINK_IsHalted()  returns FALSE (0001ms, 0324ms total)
T0EBC 001:006 JLINK_IsHalted()  returns FALSE (0001ms, 0324ms total)
T0EBC 001:009 JLINK_IsHalted()  returns FALSE (0001ms, 0324ms total)
T0EBC 001:011 JLINK_IsHalted()  returns FALSE (0001ms, 0324ms total)
T0EBC 001:013 JLINK_IsHalted()  returns FALSE (0001ms, 0324ms total)
T0EBC 001:015 JLINK_IsHalted()  returns FALSE (0001ms, 0324ms total)
T0EBC 001:017 JLINK_IsHalted()  returns FALSE (0001ms, 0324ms total)
T0EBC 001:019 JLINK_IsHalted()  returns FALSE (0001ms, 0324ms total)
T0EBC 001:021 JLINK_IsHalted()  returns FALSE (0001ms, 0324ms total)
T0EBC 001:024 JLINK_IsHalted()  returns FALSE (0001ms, 0324ms total)
T0EBC 001:026 JLINK_IsHalted()  returns FALSE (0001ms, 0324ms total)
T0EBC 001:028 JLINK_IsHalted()  returns FALSE (0001ms, 0324ms total)
T0EBC 001:030 JLINK_IsHalted()  returns FALSE (0001ms, 0324ms total)
T0EBC 001:032 JLINK_IsHalted()  returns FALSE (0001ms, 0324ms total)
T0EBC 001:035 JLINK_IsHalted() -- CPU_ReadMem(2 bytes @ 0x20000000)  returns TRUE (0004ms, 0327ms total)
T0EBC 001:039 JLINK_ReadReg(R15 (PC))  returns 0x20000000 (0000ms, 0323ms total)
T0EBC 001:039 JLINK_ClrBPEx(BPHandle = 0x0000000E)  returns 0x00 (0000ms, 0323ms total)
T0EBC 001:039 JLINK_ReadReg(R0)  returns 0x00000000 (0000ms, 0323ms total)
T0EBC 001:039 JLINK_WriteMem(0x20000164, 0x0400 Bytes, ...) - Data: 03 01 1F 20 CD E9 00 03 00 23 07 4A 07 A1 0C 48 ... -- CPU_WriteMem(1024 bytes @ 0x20000164)  returns 0x400 (0007ms, 0330ms total)
T0EBC 001:046 JLINK_WriteReg(R0, 0x08002800)  returns 0x00 (0000ms, 0330ms total)
T0EBC 001:046 JLINK_WriteReg(R1, 0x00000400)  returns 0x00 (0000ms, 0330ms total)
T0EBC 001:046 JLINK_WriteReg(R2, 0x20000164)  returns 0x00 (0000ms, 0330ms total)
T0EBC 001:046 JLINK_WriteReg(R3, 0x00000000)  returns 0x00 (0000ms, 0330ms total)
T0EBC 001:046 JLINK_WriteReg(R4, 0x00000000)  returns 0x00 (0000ms, 0330ms total)
T0EBC 001:046 JLINK_WriteReg(R5, 0x00000000)  returns 0x00 (0000ms, 0330ms total)
T0EBC 001:046 JLINK_WriteReg(R6, 0x00000000)  returns 0x00 (0000ms, 0330ms total)
T0EBC 001:046 JLINK_WriteReg(R7, 0x00000000)  returns 0x00 (0000ms, 0330ms total)
T0EBC 001:046 JLINK_WriteReg(R8, 0x00000000)  returns 0x00 (0000ms, 0330ms total)
T0EBC 001:046 JLINK_WriteReg(R9, 0x20000160)  returns 0x00 (0000ms, 0330ms total)
T0EBC 001:046 JLINK_WriteReg(R10, 0x00000000)  returns 0x00 (0000ms, 0330ms total)
T0EBC 001:046 JLINK_WriteReg(R11, 0x00000000)  returns 0x00 (0000ms, 0330ms total)
T0EBC 001:046 JLINK_WriteReg(R12, 0x00000000)  returns 0x00 (0000ms, 0330ms total)
T0EBC 001:046 JLINK_WriteReg(R13 (SP), 0x20001000)  returns 0x00 (0000ms, 0330ms total)
T0EBC 001:046 JLINK_WriteReg(R14, 0x20000001)  returns 0x00 (0000ms, 0330ms total)
T0EBC 001:046 JLINK_WriteReg(R15 (PC), 0x200000F4)  returns 0x00 (0000ms, 0330ms total)
T0EBC 001:046 JLINK_WriteReg(XPSR, 0x01000000)  returns 0x00 (0000ms, 0330ms total)
T0EBC 001:046 JLINK_WriteReg(MSP, 0x20001000)  returns 0x00 (0000ms, 0330ms total)
T0EBC 001:046 JLINK_WriteReg(PSP, 0x20001000)  returns 0x00 (0000ms, 0330ms total)
T0EBC 001:046 JLINK_WriteReg(CFBP, 0x00000000)  returns 0x00 (0000ms, 0330ms total)
T0EBC 001:046 JLINK_SetBPEx(Addr = 0x20000000, Type = 0xFFFFFFF2)  returns 0x0000000F (0000ms, 0330ms total)
T0EBC 001:046 JLINK_Go() -- CPU_ReadMem(4 bytes @ 0xE0001000) (0002ms, 0332ms total)
T0EBC 001:048 JLINK_IsHalted()  returns FALSE (0001ms, 0333ms total)
T0EBC 001:052 JLINK_IsHalted()  returns FALSE (0000ms, 0332ms total)
T0EBC 001:055 JLINK_IsHalted()  returns FALSE (0001ms, 0333ms total)
T0EBC 001:057 JLINK_IsHalted()  returns FALSE (0001ms, 0333ms total)
T0EBC 001:059 JLINK_IsHalted()  returns FALSE (0001ms, 0333ms total)
T0EBC 001:061 JLINK_IsHalted()  returns FALSE (0001ms, 0333ms total)
T0EBC 001:063 JLINK_IsHalted()  returns FALSE (0000ms, 0332ms total)
T0EBC 001:065 JLINK_IsHalted()  returns FALSE (0000ms, 0332ms total)
T0EBC 001:066 JLINK_IsHalted()  returns FALSE (0001ms, 0333ms total)
T0EBC 001:070 JLINK_IsHalted()  returns FALSE (0000ms, 0332ms total)
T0EBC 001:072 JLINK_IsHalted()  returns FALSE (0000ms, 0332ms total)
T0EBC 001:074 JLINK_IsHalted()  returns FALSE (0000ms, 0332ms total)
T0EBC 001:076 JLINK_IsHalted()  returns FALSE (0000ms, 0332ms total)
T0EBC 001:078 JLINK_IsHalted()  returns FALSE (0000ms, 0332ms total)
T0EBC 001:080 JLINK_IsHalted() -- CPU_ReadMem(2 bytes @ 0x20000000)  returns TRUE (0003ms, 0335ms total)
T0EBC 001:083 JLINK_ReadReg(R15 (PC))  returns 0x20000000 (0000ms, 0332ms total)
T0EBC 001:083 JLINK_ClrBPEx(BPHandle = 0x0000000F)  returns 0x00 (0000ms, 0332ms total)
T0EBC 001:083 JLINK_ReadReg(R0)  returns 0x00000000 (0000ms, 0332ms total)
